
**** 05/15/20 17:21:50 ******* PSpice Lite (March 2016) ******* ID# 10813 ****

 ** Profile: "SCHEMATIC1-Application15"  [ C:\Users\seongjun\Desktop\Program\Pspice\Application15-PSpiceFiles\SCHEMATIC1\Application1


 ****     CIRCUIT DESCRIPTION


******************************************************************************




** Creating circuit file "Application15.cir" 
** WARNING: THIS AUTOMATICALLY GENERATED FILE MAY BE OVERWRITTEN BY SUBSEQUENT SIMULATIONS

*Libraries: 
* Profile Libraries :
* Local Libraries :
* From [PSPICE NETLIST] section of C:\Users\seongjun\AppData\Roaming\SPB_Data\cdssetup\OrCAD_PSpice\17.2.0\PSpice.ini file:
.lib "nomd.lib" 

*Analysis directives: 
.TRAN  0 10ms 0 0 
.OPTIONS ADVCONV
.PROBE64 V(alias(*)) I(alias(*)) W(alias(*)) D(alias(*)) NOISE(alias(*)) 
.INC "..\SCHEMATIC1.net" 



**** INCLUDING SCHEMATIC1.net ****
* source APPLICATION15
R_R1         N00904 N00864  33k TC=0,0 
R_R5         0 N00904  33k TC=0,0 
C_C2         N01002 N00904  0.47uF  TC=0,0 
V_V2         N00864 0 12Vdc
R_R6         0 N01034  3.9k TC=0,0 
C_C1         N00908 N00936  0.47uF  TC=0,0 
R_R4         N00936 0  5.6k TC=0,0 
V_V1         N01002 0  
+SIN 0 50m 1000 0 0 0
R_R2         N00908 N00864  4.7k TC=0,0 
C_C3         0 N01034  0.47uF  TC=0,0 
Q_Q2         N00908 N00904 N01034 BC109C 

**** RESUMING Application15.cir ****
.END

**** 05/15/20 17:21:50 ******* PSpice Lite (March 2016) ******* ID# 10813 ****

 ** Profile: "SCHEMATIC1-Application15"  [ C:\Users\seongjun\Desktop\Program\Pspice\Application15-PSpiceFiles\SCHEMATIC1\Application1


 ****     BJT MODEL PARAMETERS


******************************************************************************




               BC109C          
               NPN             
       LEVEL    1            
          IS    7.049000E-15 
          BF  677            
          NF    1            
         VAF   28.14         
         IKF   96.23         
         ISE    7.049000E-15 
          NE    1.38         
          BR    2.209        
          NR    1            
         IKR   10.73         
         ISC  250.300000E-12 
          NC    2.002        
         ISS    0            
          RE    0            
          RC    1.433        
         CJE   11.500000E-12 
         VJE     .5          
         MJE     .2717       
         CJC    5.380000E-12 
         VJC     .6218       
         MJC     .329        
        XCJC    1            
         CJS    0            
         VJS     .75         
          TF  437.800000E-12 
         XTF   12.85         
         VTF   10            
         ITF    3.097        
          TR   10.000000E-09 
         XTB    1.5          
          KF    0            
          AF    1            
          CN    2.42         
           D     .87         


**** 05/15/20 17:21:50 ******* PSpice Lite (March 2016) ******* ID# 10813 ****

 ** Profile: "SCHEMATIC1-Application15"  [ C:\Users\seongjun\Desktop\Program\Pspice\Application15-PSpiceFiles\SCHEMATIC1\Application1


 ****     INITIAL TRANSIENT SOLUTION       TEMPERATURE =   27.000 DEG C


******************************************************************************



 NODE   VOLTAGE     NODE   VOLTAGE     NODE   VOLTAGE     NODE   VOLTAGE


(N00864)   12.0000 (N00904)    5.9480 (N00908)    5.6567 (N00936)    0.0000     

(N01002)    0.0000 (N01034)    5.2758 




    VOLTAGE SOURCE CURRENTS
    NAME         CURRENT

    V_V2        -1.533E-03
    V_V1         0.000E+00

    TOTAL POWER DISSIPATION   1.84E-02  WATTS



          JOB CONCLUDED

**** 05/15/20 17:21:50 ******* PSpice Lite (March 2016) ******* ID# 10813 ****

 ** Profile: "SCHEMATIC1-Application15"  [ C:\Users\seongjun\Desktop\Program\Pspice\Application15-PSpiceFiles\SCHEMATIC1\Application1


 ****     JOB STATISTICS SUMMARY


******************************************************************************



  Total job time (using Solver 1)   =         .09
