
**** 05/14/20 21:37:47 ******* PSpice Lite (March 2016) ******* ID# 10813 ****

 ** Profile: "SCHEMATIC1-Application7"  [ C:\Users\seongjun\Desktop\Program\Pspice\Application7-PSpiceFiles\SCHEMATIC1\Application7.s


 ****     CIRCUIT DESCRIPTION


******************************************************************************




** Creating circuit file "Application7.cir" 
** WARNING: THIS AUTOMATICALLY GENERATED FILE MAY BE OVERWRITTEN BY SUBSEQUENT SIMULATIONS

*Libraries: 
* Profile Libraries :
* Local Libraries :
* From [PSPICE NETLIST] section of C:\Users\seongjun\AppData\Roaming\SPB_Data\cdssetup\OrCAD_PSpice\17.2.0\PSpice.ini file:
.lib "nomd.lib" 

*Analysis directives: 
.TRAN  0 20ms 0 10u 
.OPTIONS ADVCONV
.PROBE64 V(alias(*)) I(alias(*)) W(alias(*)) D(alias(*)) NOISE(alias(*)) 
.INC "..\SCHEMATIC1.net" 



**** INCLUDING SCHEMATIC1.net ****
* source APPLICATION7
V_V1         N00246 0 10Vdc
X_U2         N00246 N00253 Sw_tClose PARAMS: tClose=0.1m ttran=1u Rclosed=0.01
+  Ropen=1Meg
X_U3         0 N00257 Sw_tClose PARAMS: tClose=10.0m ttran=1u Rclosed=0.01
+  Ropen=1Meg
C_C1         N00257 N00226  1.7uF  TC=0,0 
L_L1         0 N00226  1.7mH  
X_U1         N00253 N00257 Sw_tOpen PARAMS: tOpen=10m ttran=1u Rclosed=0.01
+  Ropen=1Meg

**** RESUMING Application7.cir ****
.END

**** 05/14/20 21:37:47 ******* PSpice Lite (March 2016) ******* ID# 10813 ****

 ** Profile: "SCHEMATIC1-Application7"  [ C:\Users\seongjun\Desktop\Program\Pspice\Application7-PSpiceFiles\SCHEMATIC1\Application7.s


 ****     Voltage Controlled Switch MODEL PARAMETERS


******************************************************************************




               X_U2.Smod       X_U3.Smod       X_U1.Smod       
         RON     .01             .01             .01         
        ROFF    1.000000E+06    1.000000E+06    1.000000E+06 
         VON    1               1               1            
        VOFF    0               0               0            


**** 05/14/20 21:37:47 ******* PSpice Lite (March 2016) ******* ID# 10813 ****

 ** Profile: "SCHEMATIC1-Application7"  [ C:\Users\seongjun\Desktop\Program\Pspice\Application7-PSpiceFiles\SCHEMATIC1\Application7.s


 ****     INITIAL TRANSIENT SOLUTION       TEMPERATURE =   27.000 DEG C


******************************************************************************



 NODE   VOLTAGE     NODE   VOLTAGE     NODE   VOLTAGE     NODE   VOLTAGE


(N00226)    0.0000 (N00246)   10.0000 (N00253)    5.0000 (N00257)    5.0000     

(X_U1.3)    1.0000 (X_U2.3)    0.0000 (X_U3.3)    0.0000 




    VOLTAGE SOURCE CURRENTS
    NAME         CURRENT

    V_V1        -5.000E-06
    X_U2.V1      0.000E+00
    X_U3.V1      0.000E+00
    X_U1.V1     -1.000E-12

    TOTAL POWER DISSIPATION   5.00E-05  WATTS



          JOB CONCLUDED

**** 05/14/20 21:37:47 ******* PSpice Lite (March 2016) ******* ID# 10813 ****

 ** Profile: "SCHEMATIC1-Application7"  [ C:\Users\seongjun\Desktop\Program\Pspice\Application7-PSpiceFiles\SCHEMATIC1\Application7.s


 ****     JOB STATISTICS SUMMARY


******************************************************************************



  Total job time (using Solver 1)   =         .08
