
**** 05/15/20 15:51:07 ******* PSpice Lite (March 2016) ******* ID# 10813 ****

 ** Profile: "SCHEMATIC1-Application14"  [ C:\Users\seongjun\Desktop\Program\Pspice\Application14-PSpiceFiles\SCHEMATIC1\Application1


 ****     CIRCUIT DESCRIPTION


******************************************************************************




** Creating circuit file "Application14.cir" 
** WARNING: THIS AUTOMATICALLY GENERATED FILE MAY BE OVERWRITTEN BY SUBSEQUENT SIMULATIONS

*Libraries: 
* Profile Libraries :
* Local Libraries :
* From [PSPICE NETLIST] section of C:\Users\seongjun\AppData\Roaming\SPB_Data\cdssetup\OrCAD_PSpice\17.2.0\PSpice.ini file:
.lib "nomd.lib" 

*Analysis directives: 
.TRAN  0 10ms 0 10 
.OPTIONS ADVCONV
.PROBE64 V(alias(*)) I(alias(*)) W(alias(*)) D(alias(*)) NOISE(alias(*)) 
.INC "..\SCHEMATIC1.net" 



**** INCLUDING SCHEMATIC1.net ****
* source APPLICATION14
V_V1         N00288 0  
+SIN 0 50m 1000 0 0 0
R_R1         N00364 N00392  30k TC=0,0 
R_R2         N00340 N00392  10k TC=0,0 
R_R3         N00288 N00628  1k TC=0,0 
R_R4         N00333 0  100k TC=0,0 
R_R5         0 N00364  100k TC=0,0 
R_R6         0 N00360  5k TC=0,0 
C_C1         N00340 N00333  10uF  TC=0,0 
Q_Q1         N00340 N00364 N00360 Q2N3904
C_C2         N00628 N00364  10uF  TC=0,0 
V_V2         N00392 0 12Vdc

**** RESUMING Application14.cir ****
.END

**** 05/15/20 15:51:07 ******* PSpice Lite (March 2016) ******* ID# 10813 ****

 ** Profile: "SCHEMATIC1-Application14"  [ C:\Users\seongjun\Desktop\Program\Pspice\Application14-PSpiceFiles\SCHEMATIC1\Application1


 ****     BJT MODEL PARAMETERS


******************************************************************************




               Q2N3904         
               NPN             
       LEVEL    1            
          IS    6.734000E-15 
          BF  416.4          
          NF    1            
         VAF   74.03         
         IKF     .06678      
         ISE    6.734000E-15 
          NE    1.259        
          BR     .7371       
          NR    1            
         ISS    0            
          RB   10            
          RE    0            
          RC    1            
         CJE    4.493000E-12 
         VJE     .75         
         MJE     .2593       
         CJC    3.638000E-12 
         VJC     .75         
         MJC     .3085       
        XCJC    1            
         CJS    0            
         VJS     .75         
          TF  301.200000E-12 
         XTF    2            
         VTF    4            
         ITF     .4          
          TR  239.500000E-09 
         XTB    1.5          
          KF    0            
          AF    1            
          CN    2.42         
           D     .87         


**** 05/15/20 15:51:07 ******* PSpice Lite (March 2016) ******* ID# 10813 ****

 ** Profile: "SCHEMATIC1-Application14"  [ C:\Users\seongjun\Desktop\Program\Pspice\Application14-PSpiceFiles\SCHEMATIC1\Application1


 ****     INITIAL TRANSIENT SOLUTION       TEMPERATURE =   27.000 DEG C


******************************************************************************



 NODE   VOLTAGE     NODE   VOLTAGE     NODE   VOLTAGE     NODE   VOLTAGE


(N00288)    0.0000 (N00333)    0.0000 (N00340)    4.6158 (N00360)    4.5594     

(N00364)    5.2277 (N00392)   12.0000 (N00628)    0.0000 




    VOLTAGE SOURCE CURRENTS
    NAME         CURRENT

    V_V1         0.000E+00
    V_V2        -9.642E-04

    TOTAL POWER DISSIPATION   1.16E-02  WATTS



          JOB CONCLUDED

**** 05/15/20 15:51:07 ******* PSpice Lite (March 2016) ******* ID# 10813 ****

 ** Profile: "SCHEMATIC1-Application14"  [ C:\Users\seongjun\Desktop\Program\Pspice\Application14-PSpiceFiles\SCHEMATIC1\Application1


 ****     JOB STATISTICS SUMMARY


******************************************************************************



  Total job time (using Solver 1)   =         .13
